
T141C 000:292 SEGGER J-Link V4.50l Log File (0001ms, 0293ms total)
T141C 000:292 DLL Compiled: Jul  9 2012 15:02:49 (0001ms, 0293ms total)
T141C 000:292 Logging started @ 2015-10-20 14:45 (0001ms, 0293ms total)
T141C 000:293 JLINK_SetWarnOutHandler(...) (0000ms, 0293ms total)
T141C 000:293 JLINK_OpenEx(...)
Firmware: J-Link ARM V8 compiled Jun 19 2012 11:29:30
Hardware: V8.00
S/N: 17935099
Feature(s): RDI,FlashDL,FlashBP,JFlash  returns O.K. (0030ms, 0323ms total)
T141C 000:323 JLINK_SetErrorOutHandler(...) (0000ms, 0323ms total)
T141C 000:323 JLINK_ExecCommand("Device = STM32F103C8", ...)
                JLINK_ExecCommand("map ram 0x20000000 - 0x20004FFF", ...)  returns 0x00 (0000ms, 0000ms total)
                JLINK_AddMirrorAreaEx(Addr = 0x00000000, Size = 0x00000000) (0000ms, 0000ms total)
              Device "STM32F103C8" selected (64 KB flash, 20 KB RAM).  returns 0x00 (0008ms, 0331ms total)
T141C 000:331 JLINK_ExecCommand("ProjectFile = "E:\Docum\stm32lcd\User-v2\JLinkSettings.ini"", ...)  returns 0x00 (0001ms, 0332ms total)
T141C 000:346 JLINK_ExecCommand("DisableConnectionTimeout", ...)  returns 0x00 (0000ms, 0332ms total)
T141C 000:346 JLINK_TIF_Select(JLINKARM_TIF_SWD)  returns 0x00 (0005ms, 0337ms total)
T141C 000:351 JLINK_SetSpeed(5000) (0001ms, 0338ms total)
T141C 000:352 JLINK_GetHardwareVersion()  returns 0x13880 (0000ms, 0338ms total)
T141C 000:352 JLINK_GetDLLVersion()  returns 45012 (0000ms, 0338ms total)
T141C 000:352 JLINK_GetFirmwareString(...) (0000ms, 0338ms total)
T141C 000:363 JLINK_GetDLLVersion()  returns 45012 (0000ms, 0338ms total)
T141C 000:363 JLINK_GetCompileDateTime() (0000ms, 0338ms total)
T141C 000:364 JLINK_GetFirmwareString(...) (0000ms, 0338ms total)
T141C 000:365 JLINK_GetHardwareVersion()  returns 0x13880 (0000ms, 0338ms total)
T141C 000:371 JLINK_GetId() >0x108 TIF>Found SWD-DP with ID 0x1BA01477 >0x0D TIF> >0x28 TIF> >0x0D TIF> >0x28 TIF> >0x0D TIF> >0x21 TIF> >0x0D TIF> >0x28 TIF> >0x0D TIF> >0x28 TIF> >0x0D TIF> >0x28 TIF> >0x0D TIF> >0x21 TIF> >0x0D TIF> >0x21 TIF> >0x0D TIF> >0x28 TIF> >0x0D TIF> >0x21 TIF> >0x0D TIF> >0x21 TIF> >0x0D TIF> >0x28 TIF> >0x0D TIF> >0x28 TIF> >0x108 TIF>Found SWD-DP with ID 0x1BA01477 >0x0D TIF> >0x21 TIF> >0x0D TIF> >0x28 TIF> >0x0D TIF> >0x28 TIF> >0x0D TIF> >0x21 TIF> >0x0D TIF> >0x21 TIF>
 >0x0D TIF> >0x28 TIF> >0x0D TIF> >0x21 TIF> >0x0D TIF> >0x21 TIF> >0x0D TIF> >0x21 TIF> >0x0D TIF> >0x21 TIF> >0x0D TIF> >0x21 TIF> >0x0D TIF> >0x28 TIF> >0x0D TIF> >0x28 TIF> >0x0D TIF> >0x21 TIF> >0x0D TIF> >0x21 TIF> >0x0D TIF> >0x28 TIF> >0x0D TIF> >0x21 TIF> >0x0D TIF> >0x21 TIF> >0x0D TIF> >0x28 TIF> >0x0D TIF> >0x21 TIF> >0x0D TIF> >0x21 TIF> >0x0D TIF> >0x28 TIF> >0x0D TIF> >0x28 TIF> >0x0D TIF> >0x28 TIF> >0x0D TIF> >0x21 TIF> >0x0D TIF> >0x21 TIF> >0x0D TIF> >0x28 TIF> >0x0D TIF> >0x28 TIF>
 >0x0D TIF> >0x28 TIF> >0x0D TIF> >0x28 TIF> >0x0D TIF> >0x28 TIF> >0x0D TIF> >0x21 TIF> >0x0D TIF> >0x21 TIF> >0x0D TIF> >0x21 TIF>TPIU fitted. >0x0D TIF> >0x28 TIF> >0x0D TIF> >0x21 TIF> >0x0D TIF> >0x21 TIF> >0x0D TIF> >0x28 TIF> >0x0D TIF> >0x21 TIF> >0x0D TIF> >0x21 TIF>FPUnit: 6 code (BP) slots and 2 literal slots >0x0D TIF> >0x28 TIF> >0x0D TIF> >0x21 TIF> >0x0D TIF> >0x21 TIF> >0x0D TIF> >0x28 TIF> >0x0D TIF> >0x28 TIF> >0x0D TIF> >0x28 TIF> >0x0D TIF> >0x21 TIF> >0x0D TIF> >0x21 TIF> >0x0D TIF>
 >0x28 TIF> >0x0D TIF> >0x21 TIF> >0x0D TIF> >0x21 TIF> >0x0D TIF> >0x28 TIF> >0x0D TIF> >0x21 TIF> >0x0D TIF> >0x21 TIF>Found Cortex-M3 r1p1, Little endian. >0x0D TIF> >0x21 TIF>  returns 0x1BA01477 (0143ms, 0481ms total)
T141C 000:514 JLINK_GetDebugInfo(0x100) -- Value=0xE00FF003  returns 0x00 (0000ms, 0481ms total)
T141C 000:517 JLINK_ReadMem (0xE00FFFF0, 0x0010 Bytes, ...) -- CPU is running -- CPU_ReadMem(16 bytes @ 0xE00FFFF0) -- Data:  0D 00 00 00 10 00 00 00 05 00 00 00 B1 00 00 00  returns 0x00 (0002ms, 0483ms total)
T141C 000:519 JLINK_ReadMem (0xE00FFFD0, 0x0020 Bytes, ...) -- CPU is running -- CPU_ReadMem(32 bytes @ 0xE00FFFD0) -- Data:  00 00 00 00 00 00 00 00 00 00 00 00 00 00 00 00 ...  returns 0x00 (0001ms, 0484ms total)
T141C 000:520 JLINK_ReadMem (0xE00FF000, 0x0018 Bytes, ...) -- CPU is running -- CPU_ReadMem(24 bytes @ 0xE00FF000) -- Data:  03 F0 F0 FF 03 20 F0 FF 03 30 F0 FF 03 10 F0 FF ...  returns 0x00 (0002ms, 0486ms total)
T141C 000:522 JLINK_ReadMemU32(0xE000ED00, 0x0001 Items, ...) -- CPU is running -- CPU_ReadMem(4 bytes @ 0xE000ED00) -- Data:  31 C2 1F 41  returns 0x01 (0001ms, 0487ms total)
T141C 000:523 JLINK_SetResetType(JLINKARM_RESET_TYPE_NORMAL)  returns JLINKARM_RESET_TYPE_NORMAL (0000ms, 0487ms total)
T141C 000:523 JLINK_Reset() -- CPU is running -- CPU_WriteMem(4 bytes @ 0xE000EDF0) -- CPU is running -- CPU_WriteMem(4 bytes @ 0xE000EDFC) >0x35 TIF> -- CPU is running -- CPU_WriteMem(4 bytes @ 0xE000ED0C) -- CPU is running -- CPU_ReadMem(4 bytes @ 0xE000EDF0) -- CPU is running -- CPU_ReadMem(4 bytes @ 0xE000EDF0) -- CPU is running -- CPU_WriteMem(4 bytes @ 0xE000EDF0) -- CPU is running -- CPU_WriteMem(4 bytes @ 0xE000EDFC) -- CPU is running -- CPU_ReadMem(4 bytes @ 0xE000EDF0)
 -- CPU_WriteMem(4 bytes @ 0xE0002000) (0021ms, 0508ms total)
T141C 000:544 JLINK_Halt()  returns 0x00 (0000ms, 0508ms total)
T141C 000:544 JLINK_IsHalted()  returns TRUE (0000ms, 0508ms total)
T141C 000:544 JLINK_ReadMemU32(0xE000EDF0, 0x0001 Items, ...) -- CPU_ReadMem(4 bytes @ 0xE000EDF0) -- Data:  03 00 03 00  returns 0x01 (0001ms, 0509ms total)
T141C 000:545 JLINK_WriteU32(0xE000EDF0, 0xA05F0003) -- CPU_WriteMem(4 bytes @ 0xE000EDF0)  returns 0x00 (0002ms, 0511ms total)
T141C 000:547 JLINK_WriteU32(0xE000EDFC, 0x01000000) -- CPU_WriteMem(4 bytes @ 0xE000EDFC)  returns 0x00 (0001ms, 0512ms total)
T141C 000:558 JLINK_GetHWStatus(...)  returns 0x00 (0001ms, 0513ms total)
T141C 000:565 JLINK_GetNumBPUnits(Type = 0xFFFFFF00)  returns 0x06 (0000ms, 0513ms total)
T141C 000:565 JLINK_GetNumBPUnits(Type = 0xF0)  returns 0x2000 (0000ms, 0513ms total)
T141C 000:565 JLINK_GetNumWPUnits()  returns 0x04 (0000ms, 0513ms total)
T141C 000:570 JLINK_GetSpeed()  returns 0xFA0 (0000ms, 0513ms total)
T141C 000:572 JLINK_ReadMemU32(0xE000E004, 0x0001 Items, ...) -- CPU_ReadMem(4 bytes @ 0xE000E004) -- Data:  01 00 00 00  returns 0x01 (0001ms, 0514ms total)
T141C 000:573 JLINK_ReadMemU32(0xE000E004, 0x0001 Items, ...) -- CPU_ReadMem(4 bytes @ 0xE000E004) -- Data:  01 00 00 00  returns 0x01 (0002ms, 0516ms total)
T141C 000:575 JLINK_WriteMem(0xE0001000, 0x001C Bytes, ...) -- Data:  01 00 00 00 00 00 00 00 00 00 00 00 00 00 00 00 ... -- CPU_WriteMem(28 bytes @ 0xE0001000)  returns 0x1C (0001ms, 0517ms total)
T141C 000:576 JLINK_ReadMem (0xE0001000, 0x001C Bytes, ...) -- CPU_ReadMem(28 bytes @ 0xE0001000) -- Data:  01 00 00 40 00 00 00 00 00 00 00 00 00 00 00 00 ...  returns 0x00 (0002ms, 0519ms total)
T141C 000:578 JLINK_Halt()  returns 0x00 (0000ms, 0519ms total)
T141C 000:578 JLINK_IsHalted()  returns TRUE (0000ms, 0519ms total)
T141C 000:580 JLINK_WriteMem(0x20000000, 0x0164 Bytes, ...) -- Data:  00 BE 0A E0 0D 78 2D 06 68 40 08 24 40 00 00 D3 ... -- CPU_WriteMem(356 bytes @ 0x20000000)  returns 0x164 (0003ms, 0522ms total)
T141C 000:584 JLINK_WriteReg(R0, 0x08000000)  returns 0x00 (0000ms, 0522ms total)
T141C 000:584 JLINK_WriteReg(R1, 0x007A1200)  returns 0x00 (0000ms, 0522ms total)
T141C 000:584 JLINK_WriteReg(R2, 0x00000001)  returns 0x00 (0000ms, 0522ms total)
T141C 000:584 JLINK_WriteReg(R3, 0x00000000)  returns 0x00 (0000ms, 0522ms total)
T141C 000:584 JLINK_WriteReg(R4, 0x00000000)  returns 0x00 (0000ms, 0522ms total)
T141C 000:584 JLINK_WriteReg(R5, 0x00000000)  returns 0x00 (0000ms, 0522ms total)
T141C 000:584 JLINK_WriteReg(R6, 0x00000000)  returns 0x00 (0000ms, 0522ms total)
T141C 000:584 JLINK_WriteReg(R7, 0x00000000)  returns 0x00 (0000ms, 0522ms total)
T141C 000:584 JLINK_WriteReg(R8, 0x00000000)  returns 0x00 (0000ms, 0522ms total)
T141C 000:584 JLINK_WriteReg(R9, 0x20000160)  returns 0x00 (0000ms, 0522ms total)
T141C 000:584 JLINK_WriteReg(R10, 0x00000000)  returns 0x00 (0000ms, 0522ms total)
T141C 000:584 JLINK_WriteReg(R11, 0x00000000)  returns 0x00 (0000ms, 0522ms total)
T141C 000:584 JLINK_WriteReg(R12, 0x00000000)  returns 0x00 (0000ms, 0522ms total)
T141C 000:584 JLINK_WriteReg(R13, 0x20000800)  returns 0x00 (0000ms, 0522ms total)
T141C 000:584 JLINK_WriteReg(R14, 0x20000001)  returns 0x00 (0000ms, 0522ms total)
T141C 000:584 JLINK_WriteReg(R15, 0x20000038)  returns 0x00 (0000ms, 0522ms total)
T141C 000:584 JLINK_WriteReg(XPSR, 0x01000000)  returns 0x00 (0000ms, 0522ms total)
T141C 000:584 JLINK_WriteReg(MSP, 0x20000800)  returns 0x00 (0000ms, 0522ms total)
T141C 000:584 JLINK_WriteReg(PSP, 0x20000800)  returns 0x00 (0000ms, 0522ms total)
T141C 000:584 JLINK_WriteReg(CFBP, 0x00000000)  returns 0x00 (0000ms, 0522ms total)
T141C 000:584 JLINK_SetBPEx(Addr = 0x20000000, Type = 0xFFFFFFF2) -- CPU_ReadMem(2 bytes @ 0x20000000)  returns 0x00000001 (0001ms, 0523ms total)
T141C 000:585 JLINK_Go() -- CPU_WriteMem(2 bytes @ 0x20000000) -- CPU_WriteMem(4 bytes @ 0xE0002008) -- CPU_WriteMem(4 bytes @ 0xE000200C) -- CPU_WriteMem(4 bytes @ 0xE0002010) -- CPU_WriteMem(4 bytes @ 0xE0002014) -- CPU_WriteMem(4 bytes @ 0xE0002018) -- CPU_WriteMem(4 bytes @ 0xE000201C) (0011ms, 0534ms total)
T141C 000:596 JLINK_IsHalted() -- CPU_ReadMem(2 bytes @ 0x20000000)  returns TRUE (0005ms, 0539ms total)
T141C 000:601 JLINK_ReadReg(R15)  returns 0x20000000 (0000ms, 0534ms total)
T141C 000:601 JLINK_ClrBPEx(BPHandle = 0x00000001)  returns 0x00 (0000ms, 0534ms total)
T141C 000:601 JLINK_ReadReg(R0)  returns 0x00000000 (0000ms, 0534ms total)
T141C 000:601 JLINK_WriteReg(R0, 0x08000000)  returns 0x00 (0000ms, 0534ms total)
T141C 000:601 JLINK_WriteReg(R1, 0x007A1200)  returns 0x00 (0000ms, 0534ms total)
T141C 000:601 JLINK_WriteReg(R2, 0x00000001)  returns 0x00 (0000ms, 0534ms total)
T141C 000:601 JLINK_WriteReg(R3, 0x00000000)  returns 0x00 (0000ms, 0534ms total)
T141C 000:601 JLINK_WriteReg(R4, 0x00000000)  returns 0x00 (0001ms, 0535ms total)
T141C 000:602 JLINK_WriteReg(R5, 0x00000000)  returns 0x00 (0000ms, 0535ms total)
T141C 000:602 JLINK_WriteReg(R6, 0x00000000)  returns 0x00 (0000ms, 0535ms total)
T141C 000:602 JLINK_WriteReg(R7, 0x00000000)  returns 0x00 (0000ms, 0535ms total)
T141C 000:602 JLINK_WriteReg(R8, 0x00000000)  returns 0x00 (0000ms, 0535ms total)
T141C 000:602 JLINK_WriteReg(R9, 0x20000160)  returns 0x00 (0000ms, 0535ms total)
T141C 000:602 JLINK_WriteReg(R10, 0x00000000)  returns 0x00 (0000ms, 0535ms total)
T141C 000:602 JLINK_WriteReg(R11, 0x00000000)  returns 0x00 (0000ms, 0535ms total)
T141C 000:602 JLINK_WriteReg(R12, 0x00000000)  returns 0x00 (0000ms, 0535ms total)
T141C 000:602 JLINK_WriteReg(R13, 0x20000800)  returns 0x00 (0000ms, 0535ms total)
T141C 000:602 JLINK_WriteReg(R14, 0x20000001)  returns 0x00 (0000ms, 0535ms total)
T141C 000:602 JLINK_WriteReg(R15, 0x2000007C)  returns 0x00 (0000ms, 0535ms total)
T141C 000:602 JLINK_WriteReg(XPSR, 0x01000000)  returns 0x00 (0000ms, 0535ms total)
T141C 000:602 JLINK_WriteReg(MSP, 0x20000800)  returns 0x00 (0000ms, 0535ms total)
T141C 000:602 JLINK_WriteReg(PSP, 0x20000800)  returns 0x00 (0000ms, 0535ms total)
T141C 000:602 JLINK_WriteReg(CFBP, 0x00000000)  returns 0x00 (0000ms, 0535ms total)
T141C 000:602 JLINK_SetBPEx(Addr = 0x20000000, Type = 0xFFFFFFF2)  returns 0x00000002 (0000ms, 0535ms total)
T141C 000:602 JLINK_Go() -- CPU_WriteMem(4 bytes @ 0xE0002008) -- CPU_WriteMem(4 bytes @ 0xE000200C) -- CPU_WriteMem(4 bytes @ 0xE0002010) -- CPU_WriteMem(4 bytes @ 0xE0002014) -- CPU_WriteMem(4 bytes @ 0xE0002018) -- CPU_WriteMem(4 bytes @ 0xE000201C) (0009ms, 0544ms total)
T141C 000:611 JLINK_IsHalted()  returns FALSE (0001ms, 0545ms total)
T141C 000:662 JLINK_IsHalted() -- CPU_ReadMem(2 bytes @ 0x20000000)  returns TRUE (0005ms, 0549ms total)
T141C 000:667 JLINK_ReadReg(R15)  returns 0x20000000 (0000ms, 0544ms total)
T141C 000:667 JLINK_ClrBPEx(BPHandle = 0x00000002)  returns 0x00 (0000ms, 0544ms total)
T141C 000:667 JLINK_ReadReg(R0)  returns 0x00000000 (0000ms, 0544ms total)
T141C 000:719 JLINK_WriteReg(R0, 0x00000001)  returns 0x00 (0000ms, 0544ms total)
T141C 000:719 JLINK_WriteReg(R1, 0x007A1200)  returns 0x00 (0000ms, 0544ms total)
T141C 000:719 JLINK_WriteReg(R2, 0x00000001)  returns 0x00 (0000ms, 0544ms total)
T141C 000:719 JLINK_WriteReg(R3, 0x00000000)  returns 0x00 (0000ms, 0544ms total)
T141C 000:719 JLINK_WriteReg(R4, 0x00000000)  returns 0x00 (0000ms, 0544ms total)
T141C 000:719 JLINK_WriteReg(R5, 0x00000000)  returns 0x00 (0000ms, 0544ms total)
T141C 000:719 JLINK_WriteReg(R6, 0x00000000)  returns 0x00 (0000ms, 0544ms total)
T141C 000:719 JLINK_WriteReg(R7, 0x00000000)  returns 0x00 (0001ms, 0545ms total)
T141C 000:720 JLINK_WriteReg(R8, 0x00000000)  returns 0x00 (0000ms, 0545ms total)
T141C 000:720 JLINK_WriteReg(R9, 0x20000160)  returns 0x00 (0000ms, 0545ms total)
T141C 000:720 JLINK_WriteReg(R10, 0x00000000)  returns 0x00 (0000ms, 0545ms total)
T141C 000:720 JLINK_WriteReg(R11, 0x00000000)  returns 0x00 (0000ms, 0545ms total)
T141C 000:720 JLINK_WriteReg(R12, 0x00000000)  returns 0x00 (0000ms, 0545ms total)
T141C 000:720 JLINK_WriteReg(R13, 0x20000800)  returns 0x00 (0000ms, 0545ms total)
T141C 000:720 JLINK_WriteReg(R14, 0x20000001)  returns 0x00 (0000ms, 0545ms total)
T141C 000:720 JLINK_WriteReg(R15, 0x2000006A)  returns 0x00 (0000ms, 0545ms total)
T141C 000:720 JLINK_WriteReg(XPSR, 0x01000000)  returns 0x00 (0000ms, 0545ms total)
T141C 000:720 JLINK_WriteReg(MSP, 0x20000800)  returns 0x00 (0000ms, 0545ms total)
T141C 000:720 JLINK_WriteReg(PSP, 0x20000800)  returns 0x00 (0000ms, 0545ms total)
T141C 000:720 JLINK_WriteReg(CFBP, 0x00000000)  returns 0x00 (0000ms, 0545ms total)
T141C 000:720 JLINK_SetBPEx(Addr = 0x20000000, Type = 0xFFFFFFF2)  returns 0x00000003 (0000ms, 0545ms total)
T141C 000:720 JLINK_Go() -- CPU_WriteMem(4 bytes @ 0xE0002008) -- CPU_WriteMem(4 bytes @ 0xE000200C) -- CPU_WriteMem(4 bytes @ 0xE0002010) -- CPU_WriteMem(4 bytes @ 0xE0002014) -- CPU_WriteMem(4 bytes @ 0xE0002018) -- CPU_WriteMem(4 bytes @ 0xE000201C) (0011ms, 0556ms total)
T141C 000:731 JLINK_IsHalted() -- CPU_ReadMem(2 bytes @ 0x20000000)  returns TRUE (0005ms, 0561ms total)
T141C 000:736 JLINK_ReadReg(R15)  returns 0x20000000 (0000ms, 0556ms total)
T141C 000:736 JLINK_ClrBPEx(BPHandle = 0x00000003)  returns 0x00 (0000ms, 0556ms total)
T141C 000:736 JLINK_ReadReg(R0)  returns 0x00000000 (0000ms, 0556ms total)
T141C 000:746 JLINK_WriteMem(0x20000000, 0x0164 Bytes, ...) -- Data:  00 BE 0A E0 0D 78 2D 06 68 40 08 24 40 00 00 D3 ... -- CPU_WriteMem(356 bytes @ 0x20000000)  returns 0x164 (0003ms, 0559ms total)
T141C 000:750 JLINK_WriteReg(R0, 0x08000000)  returns 0x00 (0000ms, 0559ms total)
T141C 000:750 JLINK_WriteReg(R1, 0x007A1200)  returns 0x00 (0000ms, 0559ms total)
T141C 000:750 JLINK_WriteReg(R2, 0x00000002)  returns 0x00 (0000ms, 0559ms total)
T141C 000:750 JLINK_WriteReg(R3, 0x00000000)  returns 0x00 (0000ms, 0559ms total)
T141C 000:750 JLINK_WriteReg(R4, 0x00000000)  returns 0x00 (0000ms, 0559ms total)
T141C 000:750 JLINK_WriteReg(R5, 0x00000000)  returns 0x00 (0000ms, 0559ms total)
T141C 000:750 JLINK_WriteReg(R6, 0x00000000)  returns 0x00 (0000ms, 0559ms total)
T141C 000:750 JLINK_WriteReg(R7, 0x00000000)  returns 0x00 (0000ms, 0559ms total)
T141C 000:750 JLINK_WriteReg(R8, 0x00000000)  returns 0x00 (0000ms, 0559ms total)
T141C 000:750 JLINK_WriteReg(R9, 0x20000160)  returns 0x00 (0000ms, 0559ms total)
T141C 000:750 JLINK_WriteReg(R10, 0x00000000)  returns 0x00 (0000ms, 0559ms total)
T141C 000:750 JLINK_WriteReg(R11, 0x00000000)  returns 0x00 (0000ms, 0559ms total)
T141C 000:750 JLINK_WriteReg(R12, 0x00000000)  returns 0x00 (0000ms, 0559ms total)
T141C 000:750 JLINK_WriteReg(R13, 0x20000800)  returns 0x00 (0000ms, 0559ms total)
T141C 000:750 JLINK_WriteReg(R14, 0x20000001)  returns 0x00 (0000ms, 0559ms total)
T141C 000:750 JLINK_WriteReg(R15, 0x20000038)  returns 0x00 (0000ms, 0559ms total)
T141C 000:750 JLINK_WriteReg(XPSR, 0x01000000)  returns 0x00 (0000ms, 0559ms total)
T141C 000:750 JLINK_WriteReg(MSP, 0x20000800)  returns 0x00 (0000ms, 0559ms total)
T141C 000:750 JLINK_WriteReg(PSP, 0x20000800)  returns 0x00 (0000ms, 0559ms total)
T141C 000:750 JLINK_WriteReg(CFBP, 0x00000000)  returns 0x00 (0000ms, 0559ms total)
T141C 000:751 JLINK_SetBPEx(Addr = 0x20000000, Type = 0xFFFFFFF2) -- CPU_ReadMem(2 bytes @ 0x20000000)  returns 0x00000004 (0001ms, 0561ms total)
T141C 000:752 JLINK_Go() -- CPU_WriteMem(2 bytes @ 0x20000000) -- CPU_WriteMem(4 bytes @ 0xE0002008) -- CPU_WriteMem(4 bytes @ 0xE000200C) -- CPU_WriteMem(4 bytes @ 0xE0002010) -- CPU_WriteMem(4 bytes @ 0xE0002014) -- CPU_WriteMem(4 bytes @ 0xE0002018) -- CPU_WriteMem(4 bytes @ 0xE000201C) (0012ms, 0573ms total)
T141C 000:764 JLINK_IsHalted() -- CPU_ReadMem(2 bytes @ 0x20000000)  returns TRUE (0005ms, 0578ms total)
T141C 000:769 JLINK_ReadReg(R15)  returns 0x20000000 (0000ms, 0573ms total)
T141C 000:769 JLINK_ClrBPEx(BPHandle = 0x00000004)  returns 0x00 (0000ms, 0573ms total)
T141C 000:769 JLINK_ReadReg(R0)  returns 0x00000000 (0000ms, 0573ms total)
T141C 000:770 JLINK_WriteMem(0x20000164, 0x0400 Bytes, ...) -- Data:  40 05 00 20 01 01 00 08 CD 01 00 08 CF 01 00 08 ... -- CPU_WriteMem(1024 bytes @ 0x20000164)  returns 0x400 (0008ms, 0581ms total)
T141C 000:778 JLINK_WriteReg(R0, 0x08000000)  returns 0x00 (0000ms, 0581ms total)
T141C 000:778 JLINK_WriteReg(R1, 0x00000400)  returns 0x00 (0000ms, 0581ms total)
T141C 000:778 JLINK_WriteReg(R2, 0x20000164)  returns 0x00 (0000ms, 0581ms total)
T141C 000:778 JLINK_WriteReg(R3, 0x00000000)  returns 0x00 (0000ms, 0581ms total)
T141C 000:778 JLINK_WriteReg(R4, 0x00000000)  returns 0x00 (0000ms, 0581ms total)
T141C 000:778 JLINK_WriteReg(R5, 0x00000000)  returns 0x00 (0000ms, 0581ms total)
T141C 000:778 JLINK_WriteReg(R6, 0x00000000)  returns 0x00 (0000ms, 0581ms total)
T141C 000:778 JLINK_WriteReg(R7, 0x00000000)  returns 0x00 (0000ms, 0581ms total)
T141C 000:778 JLINK_WriteReg(R8, 0x00000000)  returns 0x00 (0000ms, 0581ms total)
T141C 000:778 JLINK_WriteReg(R9, 0x20000160)  returns 0x00 (0000ms, 0581ms total)
T141C 000:778 JLINK_WriteReg(R10, 0x00000000)  returns 0x00 (0000ms, 0581ms total)
T141C 000:778 JLINK_WriteReg(R11, 0x00000000)  returns 0x00 (0000ms, 0581ms total)
T141C 000:778 JLINK_WriteReg(R12, 0x00000000)  returns 0x00 (0000ms, 0581ms total)
T141C 000:778 JLINK_WriteReg(R13, 0x20000800)  returns 0x00 (0000ms, 0581ms total)
T141C 000:778 JLINK_WriteReg(R14, 0x20000001)  returns 0x00 (0000ms, 0581ms total)
T141C 000:778 JLINK_WriteReg(R15, 0x200000F4)  returns 0x00 (0000ms, 0581ms total)
T141C 000:779 JLINK_WriteReg(XPSR, 0x01000000)  returns 0x00 (0000ms, 0581ms total)
T141C 000:779 JLINK_WriteReg(MSP, 0x20000800)  returns 0x00 (0000ms, 0581ms total)
T141C 000:779 JLINK_WriteReg(PSP, 0x20000800)  returns 0x00 (0000ms, 0581ms total)
T141C 000:779 JLINK_WriteReg(CFBP, 0x00000000)  returns 0x00 (0000ms, 0581ms total)
T141C 000:779 JLINK_SetBPEx(Addr = 0x20000000, Type = 0xFFFFFFF2)  returns 0x00000005 (0000ms, 0581ms total)
T141C 000:779 JLINK_Go() -- CPU_WriteMem(4 bytes @ 0xE0002008) -- CPU_WriteMem(4 bytes @ 0xE000200C) -- CPU_WriteMem(4 bytes @ 0xE0002010) -- CPU_WriteMem(4 bytes @ 0xE0002014) -- CPU_WriteMem(4 bytes @ 0xE0002018) -- CPU_WriteMem(4 bytes @ 0xE000201C) (0010ms, 0591ms total)
T141C 000:789 JLINK_IsHalted()  returns FALSE (0001ms, 0592ms total)
T141C 000:840 JLINK_IsHalted() -- CPU_ReadMem(2 bytes @ 0x20000000)  returns TRUE (0005ms, 0596ms total)
T141C 000:845 JLINK_ReadReg(R15)  returns 0x20000000 (0001ms, 0592ms total)
T141C 000:846 JLINK_ClrBPEx(BPHandle = 0x00000005)  returns 0x00 (0000ms, 0592ms total)
T141C 000:846 JLINK_ReadReg(R0)  returns 0x00000000 (0000ms, 0592ms total)
T141C 000:848 JLINK_WriteMem(0x20000164, 0x0400 Bytes, ...) -- Data:  19 B1 10 A0 01 F0 7C FC 02 E0 13 A0 01 F0 78 FC ... -- CPU_WriteMem(1024 bytes @ 0x20000164)  returns 0x400 (0008ms, 0600ms total)
T141C 000:856 JLINK_WriteReg(R0, 0x08000400)  returns 0x00 (0000ms, 0600ms total)
T141C 000:856 JLINK_WriteReg(R1, 0x00000400)  returns 0x00 (0000ms, 0600ms total)
T141C 000:856 JLINK_WriteReg(R2, 0x20000164)  returns 0x00 (0000ms, 0600ms total)
T141C 000:856 JLINK_WriteReg(R3, 0x00000000)  returns 0x00 (0000ms, 0600ms total)
T141C 000:856 JLINK_WriteReg(R4, 0x00000000)  returns 0x00 (0000ms, 0600ms total)
T141C 000:856 JLINK_WriteReg(R5, 0x00000000)  returns 0x00 (0000ms, 0600ms total)
T141C 000:856 JLINK_WriteReg(R6, 0x00000000)  returns 0x00 (0000ms, 0600ms total)
T141C 000:856 JLINK_WriteReg(R7, 0x00000000)  returns 0x00 (0000ms, 0600ms total)
T141C 000:856 JLINK_WriteReg(R8, 0x00000000)  returns 0x00 (0001ms, 0601ms total)
T141C 000:857 JLINK_WriteReg(R9, 0x20000160)  returns 0x00 (0000ms, 0601ms total)
T141C 000:857 JLINK_WriteReg(R10, 0x00000000)  returns 0x00 (0000ms, 0601ms total)
T141C 000:857 JLINK_WriteReg(R11, 0x00000000)  returns 0x00 (0000ms, 0601ms total)
T141C 000:857 JLINK_WriteReg(R12, 0x00000000)  returns 0x00 (0000ms, 0601ms total)
T141C 000:857 JLINK_WriteReg(R13, 0x20000800)  returns 0x00 (0000ms, 0601ms total)
T141C 000:857 JLINK_WriteReg(R14, 0x20000001)  returns 0x00 (0000ms, 0601ms total)
T141C 000:857 JLINK_WriteReg(R15, 0x200000F4)  returns 0x00 (0000ms, 0601ms total)
T141C 000:857 JLINK_WriteReg(XPSR, 0x01000000)  returns 0x00 (0000ms, 0601ms total)
T141C 000:857 JLINK_WriteReg(MSP, 0x20000800)  returns 0x00 (0000ms, 0601ms total)
T141C 000:857 JLINK_WriteReg(PSP, 0x20000800)  returns 0x00 (0000ms, 0601ms total)
T141C 000:857 JLINK_WriteReg(CFBP, 0x00000000)  returns 0x00 (0000ms, 0601ms total)
T141C 000:857 JLINK_SetBPEx(Addr = 0x20000000, Type = 0xFFFFFFF2)  returns 0x00000006 (0000ms, 0601ms total)
T141C 000:857 JLINK_Go() -- CPU_WriteMem(4 bytes @ 0xE0002008) -- CPU_WriteMem(4 bytes @ 0xE000200C) -- CPU_WriteMem(4 bytes @ 0xE0002010) -- CPU_WriteMem(4 bytes @ 0xE0002014) -- CPU_WriteMem(4 bytes @ 0xE0002018) -- CPU_WriteMem(4 bytes @ 0xE000201C) (0011ms, 0612ms total)
T141C 000:868 JLINK_IsHalted()  returns FALSE (0001ms, 0613ms total)
T141C 000:919 JLINK_IsHalted() -- CPU_ReadMem(2 bytes @ 0x20000000)  returns TRUE (0005ms, 0617ms total)
T141C 000:924 JLINK_ReadReg(R15)  returns 0x20000000 (0000ms, 0612ms total)
T141C 000:924 JLINK_ClrBPEx(BPHandle = 0x00000006)  returns 0x00 (0000ms, 0612ms total)
T141C 000:924 JLINK_ReadReg(R0)  returns 0x00000000 (0000ms, 0612ms total)
T141C 000:925 JLINK_WriteMem(0x20000164, 0x0400 Bytes, ...) -- Data:  FF F7 64 FF 28 06 02 D5 C9 F8 00 80 01 E0 C6 F8 ... -- CPU_WriteMem(1024 bytes @ 0x20000164)  returns 0x400 (0007ms, 0619ms total)
T141C 000:932 JLINK_WriteReg(R0, 0x08000800)  returns 0x00 (0000ms, 0619ms total)
T141C 000:933 JLINK_WriteReg(R1, 0x00000400)  returns 0x00 (0000ms, 0620ms total)
T141C 000:933 JLINK_WriteReg(R2, 0x20000164)  returns 0x00 (0000ms, 0620ms total)
T141C 000:933 JLINK_WriteReg(R3, 0x00000000)  returns 0x00 (0000ms, 0620ms total)
T141C 000:933 JLINK_WriteReg(R4, 0x00000000)  returns 0x00 (0000ms, 0620ms total)
T141C 000:933 JLINK_WriteReg(R5, 0x00000000)  returns 0x00 (0000ms, 0620ms total)
T141C 000:933 JLINK_WriteReg(R6, 0x00000000)  returns 0x00 (0000ms, 0620ms total)
T141C 000:933 JLINK_WriteReg(R7, 0x00000000)  returns 0x00 (0000ms, 0620ms total)
T141C 000:933 JLINK_WriteReg(R8, 0x00000000)  returns 0x00 (0000ms, 0620ms total)
T141C 000:933 JLINK_WriteReg(R9, 0x20000160)  returns 0x00 (0000ms, 0620ms total)
T141C 000:933 JLINK_WriteReg(R10, 0x00000000)  returns 0x00 (0000ms, 0620ms total)
T141C 000:933 JLINK_WriteReg(R11, 0x00000000)  returns 0x00 (0000ms, 0620ms total)
T141C 000:933 JLINK_WriteReg(R12, 0x00000000)  returns 0x00 (0000ms, 0620ms total)
T141C 000:933 JLINK_WriteReg(R13, 0x20000800)  returns 0x00 (0000ms, 0620ms total)
T141C 000:933 JLINK_WriteReg(R14, 0x20000001)  returns 0x00 (0000ms, 0620ms total)
T141C 000:933 JLINK_WriteReg(R15, 0x200000F4)  returns 0x00 (0000ms, 0620ms total)
T141C 000:933 JLINK_WriteReg(XPSR, 0x01000000)  returns 0x00 (0000ms, 0620ms total)
T141C 000:933 JLINK_WriteReg(MSP, 0x20000800)  returns 0x00 (0000ms, 0620ms total)
T141C 000:933 JLINK_WriteReg(PSP, 0x20000800)  returns 0x00 (0000ms, 0620ms total)
T141C 000:933 JLINK_WriteReg(CFBP, 0x00000000)  returns 0x00 (0000ms, 0620ms total)
T141C 000:933 JLINK_SetBPEx(Addr = 0x20000000, Type = 0xFFFFFFF2)  returns 0x00000007 (0000ms, 0620ms total)
T141C 000:933 JLINK_Go() -- CPU_WriteMem(4 bytes @ 0xE0002008) -- CPU_WriteMem(4 bytes @ 0xE000200C) -- CPU_WriteMem(4 bytes @ 0xE0002010) -- CPU_WriteMem(4 bytes @ 0xE0002014) -- CPU_WriteMem(4 bytes @ 0xE0002018) -- CPU_WriteMem(4 bytes @ 0xE000201C) (0010ms, 0630ms total)
T141C 000:943 JLINK_IsHalted()  returns FALSE (0001ms, 0631ms total)
T141C 000:994 JLINK_IsHalted() -- CPU_ReadMem(2 bytes @ 0x20000000)  returns TRUE (0005ms, 0635ms total)
T141C 000:999 JLINK_ReadReg(R15)  returns 0x20000000 (0000ms, 0630ms total)
T141C 000:999 JLINK_ClrBPEx(BPHandle = 0x00000007)  returns 0x00 (0000ms, 0630ms total)
T141C 000:999 JLINK_ReadReg(R0)  returns 0x00000000 (0000ms, 0630ms total)
T141C 001:000 JLINK_WriteMem(0x20000164, 0x0400 Bytes, ...) -- Data:  70 B5 1A 4C 40 F2 27 75 29 46 20 46 00 F0 6E FF ... -- CPU_WriteMem(1024 bytes @ 0x20000164)  returns 0x400 (0008ms, 0638ms total)
T141C 001:008 JLINK_WriteReg(R0, 0x08000C00)  returns 0x00 (0001ms, 0639ms total)
T141C 001:009 JLINK_WriteReg(R1, 0x00000400)  returns 0x00 (0000ms, 0639ms total)
T141C 001:009 JLINK_WriteReg(R2, 0x20000164)  returns 0x00 (0000ms, 0639ms total)
T141C 001:009 JLINK_WriteReg(R3, 0x00000000)  returns 0x00 (0000ms, 0639ms total)
T141C 001:009 JLINK_WriteReg(R4, 0x00000000)  returns 0x00 (0000ms, 0639ms total)
T141C 001:009 JLINK_WriteReg(R5, 0x00000000)  returns 0x00 (0000ms, 0639ms total)
T141C 001:009 JLINK_WriteReg(R6, 0x00000000)  returns 0x00 (0000ms, 0639ms total)
T141C 001:009 JLINK_WriteReg(R7, 0x00000000)  returns 0x00 (0001ms, 0640ms total)
T141C 001:010 JLINK_WriteReg(R8, 0x00000000)  returns 0x00 (0000ms, 0640ms total)
T141C 001:010 JLINK_WriteReg(R9, 0x20000160)  returns 0x00 (0000ms, 0640ms total)
T141C 001:010 JLINK_WriteReg(R10, 0x00000000)  returns 0x00 (0000ms, 0640ms total)
T141C 001:010 JLINK_WriteReg(R11, 0x00000000)  returns 0x00 (0000ms, 0640ms total)
T141C 001:010 JLINK_WriteReg(R12, 0x00000000)  returns 0x00 (0000ms, 0640ms total)
T141C 001:010 JLINK_WriteReg(R13, 0x20000800)  returns 0x00 (0000ms, 0640ms total)
T141C 001:010 JLINK_WriteReg(R14, 0x20000001)  returns 0x00 (0000ms, 0640ms total)
T141C 001:010 JLINK_WriteReg(R15, 0x200000F4)  returns 0x00 (0000ms, 0640ms total)
T141C 001:010 JLINK_WriteReg(XPSR, 0x01000000)  returns 0x00 (0000ms, 0640ms total)
T141C 001:010 JLINK_WriteReg(MSP, 0x20000800)  returns 0x00 (0000ms, 0640ms total)
T141C 001:010 JLINK_WriteReg(PSP, 0x20000800)  returns 0x00 (0000ms, 0640ms total)
T141C 001:010 JLINK_WriteReg(CFBP, 0x00000000)  returns 0x00 (0000ms, 0640ms total)
T141C 001:010 JLINK_SetBPEx(Addr = 0x20000000, Type = 0xFFFFFFF2)  returns 0x00000008 (0000ms, 0640ms total)
T141C 001:010 JLINK_Go() -- CPU_WriteMem(4 bytes @ 0xE0002008) -- CPU_WriteMem(4 bytes @ 0xE000200C) -- CPU_WriteMem(4 bytes @ 0xE0002010) -- CPU_WriteMem(4 bytes @ 0xE0002014) -- CPU_WriteMem(4 bytes @ 0xE0002018) -- CPU_WriteMem(4 bytes @ 0xE000201C) (0011ms, 0651ms total)
T141C 001:021 JLINK_IsHalted()  returns FALSE (0001ms, 0652ms total)
T141C 001:072 JLINK_IsHalted() -- CPU_ReadMem(2 bytes @ 0x20000000)  returns TRUE (0005ms, 0656ms total)
T141C 001:077 JLINK_ReadReg(R15)  returns 0x20000000 (0000ms, 0651ms total)
T141C 001:078 JLINK_ClrBPEx(BPHandle = 0x00000008)  returns 0x00 (0000ms, 0652ms total)
T141C 001:078 JLINK_ReadReg(R0)  returns 0x00000000 (0000ms, 0652ms total)
T141C 001:079 JLINK_WriteMem(0x20000164, 0x0400 Bytes, ...) -- Data:  C0 40 18 80 71 E7 44 F0 06 00 58 80 41 F4 50 40 ... -- CPU_WriteMem(1024 bytes @ 0x20000164)  returns 0x400 (0008ms, 0660ms total)
T141C 001:087 JLINK_WriteReg(R0, 0x08001000)  returns 0x00 (0000ms, 0660ms total)
T141C 001:087 JLINK_WriteReg(R1, 0x00000400)  returns 0x00 (0000ms, 0660ms total)
T141C 001:087 JLINK_WriteReg(R2, 0x20000164)  returns 0x00 (0000ms, 0660ms total)
T141C 001:087 JLINK_WriteReg(R3, 0x00000000)  returns 0x00 (0000ms, 0660ms total)
T141C 001:087 JLINK_WriteReg(R4, 0x00000000)  returns 0x00 (0000ms, 0660ms total)
T141C 001:087 JLINK_WriteReg(R5, 0x00000000)  returns 0x00 (0000ms, 0660ms total)
T141C 001:087 JLINK_WriteReg(R6, 0x00000000)  returns 0x00 (0000ms, 0660ms total)
T141C 001:087 JLINK_WriteReg(R7, 0x00000000)  returns 0x00 (0000ms, 0660ms total)
T141C 001:087 JLINK_WriteReg(R8, 0x00000000)  returns 0x00 (0000ms, 0660ms total)
T141C 001:087 JLINK_WriteReg(R9, 0x20000160)  returns 0x00 (0000ms, 0660ms total)
T141C 001:087 JLINK_WriteReg(R10, 0x00000000)  returns 0x00 (0000ms, 0660ms total)
T141C 001:087 JLINK_WriteReg(R11, 0x00000000)  returns 0x00 (0000ms, 0660ms total)
T141C 001:087 JLINK_WriteReg(R12, 0x00000000)  returns 0x00 (0000ms, 0660ms total)
T141C 001:087 JLINK_WriteReg(R13, 0x20000800)  returns 0x00 (0000ms, 0660ms total)
T141C 001:088 JLINK_WriteReg(R14, 0x20000001)  returns 0x00 (0000ms, 0661ms total)
T141C 001:088 JLINK_WriteReg(R15, 0x200000F4)  returns 0x00 (0000ms, 0661ms total)
T141C 001:088 JLINK_WriteReg(XPSR, 0x01000000)  returns 0x00 (0000ms, 0661ms total)
T141C 001:088 JLINK_WriteReg(MSP, 0x20000800)  returns 0x00 (0000ms, 0661ms total)
T141C 001:088 JLINK_WriteReg(PSP, 0x20000800)  returns 0x00 (0000ms, 0661ms total)
T141C 001:088 JLINK_WriteReg(CFBP, 0x00000000)  returns 0x00 (0000ms, 0661ms total)
T141C 001:088 JLINK_SetBPEx(Addr = 0x20000000, Type = 0xFFFFFFF2)  returns 0x00000009 (0000ms, 0661ms total)
T141C 001:088 JLINK_Go() -- CPU_WriteMem(4 bytes @ 0xE0002008) -- CPU_WriteMem(4 bytes @ 0xE000200C) -- CPU_WriteMem(4 bytes @ 0xE0002010) -- CPU_WriteMem(4 bytes @ 0xE0002014) -- CPU_WriteMem(4 bytes @ 0xE0002018) -- CPU_WriteMem(4 bytes @ 0xE000201C) (0010ms, 0671ms total)
T141C 001:098 JLINK_IsHalted()  returns FALSE (0001ms, 0672ms total)
T141C 001:149 JLINK_IsHalted() -- CPU_ReadMem(2 bytes @ 0x20000000)  returns TRUE (0006ms, 0677ms total)
T141C 001:155 JLINK_ReadReg(R15)  returns 0x20000000 (0000ms, 0671ms total)
T141C 001:155 JLINK_ClrBPEx(BPHandle = 0x00000009)  returns 0x00 (0000ms, 0671ms total)
T141C 001:155 JLINK_ReadReg(R0)  returns 0x00000000 (0000ms, 0671ms total)
T141C 001:156 JLINK_WriteMem(0x20000164, 0x0400 Bytes, ...) -- Data:  20 78 09 28 0D D9 00 25 28 46 25 70 00 22 61 78 ... -- CPU_WriteMem(1024 bytes @ 0x20000164)  returns 0x400 (0008ms, 0679ms total)
T141C 001:164 JLINK_WriteReg(R0, 0x08001400)  returns 0x00 (0000ms, 0679ms total)
T141C 001:164 JLINK_WriteReg(R1, 0x00000400)  returns 0x00 (0000ms, 0679ms total)
T141C 001:164 JLINK_WriteReg(R2, 0x20000164)  returns 0x00 (0000ms, 0679ms total)
T141C 001:164 JLINK_WriteReg(R3, 0x00000000)  returns 0x00 (0000ms, 0679ms total)
T141C 001:164 JLINK_WriteReg(R4, 0x00000000)  returns 0x00 (0000ms, 0679ms total)
T141C 001:164 JLINK_WriteReg(R5, 0x00000000)  returns 0x00 (0000ms, 0679ms total)
T141C 001:164 JLINK_WriteReg(R6, 0x00000000)  returns 0x00 (0000ms, 0679ms total)
T141C 001:164 JLINK_WriteReg(R7, 0x00000000)  returns 0x00 (0000ms, 0679ms total)
T141C 001:164 JLINK_WriteReg(R8, 0x00000000)  returns 0x00 (0000ms, 0679ms total)
T141C 001:164 JLINK_WriteReg(R9, 0x20000160)  returns 0x00 (0000ms, 0679ms total)
T141C 001:164 JLINK_WriteReg(R10, 0x00000000)  returns 0x00 (0000ms, 0679ms total)
T141C 001:165 JLINK_WriteReg(R11, 0x00000000)  returns 0x00 (0000ms, 0680ms total)
T141C 001:165 JLINK_WriteReg(R12, 0x00000000)  returns 0x00 (0000ms, 0680ms total)
T141C 001:165 JLINK_WriteReg(R13, 0x20000800)  returns 0x00 (0000ms, 0680ms total)
T141C 001:165 JLINK_WriteReg(R14, 0x20000001)  returns 0x00 (0000ms, 0680ms total)
T141C 001:165 JLINK_WriteReg(R15, 0x200000F4)  returns 0x00 (0000ms, 0680ms total)
T141C 001:165 JLINK_WriteReg(XPSR, 0x01000000)  returns 0x00 (0000ms, 0680ms total)
T141C 001:165 JLINK_WriteReg(MSP, 0x20000800)  returns 0x00 (0000ms, 0680ms total)
T141C 001:165 JLINK_WriteReg(PSP, 0x20000800)  returns 0x00 (0000ms, 0680ms total)
T141C 001:165 JLINK_WriteReg(CFBP, 0x00000000)  returns 0x00 (0000ms, 0680ms total)
T141C 001:165 JLINK_SetBPEx(Addr = 0x20000000, Type = 0xFFFFFFF2)  returns 0x0000000A (0000ms, 0680ms total)
T141C 001:165 JLINK_Go() -- CPU_WriteMem(4 bytes @ 0xE0002008) -- CPU_WriteMem(4 bytes @ 0xE000200C) -- CPU_WriteMem(4 bytes @ 0xE0002010) -- CPU_WriteMem(4 bytes @ 0xE0002014) -- CPU_WriteMem(4 bytes @ 0xE0002018) -- CPU_WriteMem(4 bytes @ 0xE000201C) (0011ms, 0691ms total)
T141C 001:176 JLINK_IsHalted()  returns FALSE (0001ms, 0692ms total)
T141C 001:227 JLINK_IsHalted() -- CPU_ReadMem(2 bytes @ 0x20000000)  returns TRUE (0005ms, 0696ms total)
T141C 001:232 JLINK_ReadReg(R15)  returns 0x20000000 (0000ms, 0691ms total)
T141C 001:232 JLINK_ClrBPEx(BPHandle = 0x0000000A)  returns 0x00 (0001ms, 0692ms total)
T141C 001:233 JLINK_ReadReg(R0)  returns 0x00000000 (0000ms, 0692ms total)
T141C 001:234 JLINK_WriteMem(0x20000164, 0x0400 Bytes, ...) -- Data:  11 D1 96 00 07 FA 06 F8 25 EA 08 05 03 FA 06 F8 ... -- CPU_WriteMem(1024 bytes @ 0x20000164)  returns 0x400 (0008ms, 0700ms total)
T141C 001:242 JLINK_WriteReg(R0, 0x08001800)  returns 0x00 (0000ms, 0700ms total)
T141C 001:242 JLINK_WriteReg(R1, 0x00000400)  returns 0x00 (0000ms, 0700ms total)
T141C 001:242 JLINK_WriteReg(R2, 0x20000164)  returns 0x00 (0000ms, 0700ms total)
T141C 001:242 JLINK_WriteReg(R3, 0x00000000)  returns 0x00 (0000ms, 0700ms total)
T141C 001:242 JLINK_WriteReg(R4, 0x00000000)  returns 0x00 (0000ms, 0700ms total)
T141C 001:242 JLINK_WriteReg(R5, 0x00000000)  returns 0x00 (0000ms, 0700ms total)
T141C 001:242 JLINK_WriteReg(R6, 0x00000000)  returns 0x00 (0000ms, 0700ms total)
T141C 001:242 JLINK_WriteReg(R7, 0x00000000)  returns 0x00 (0000ms, 0700ms total)
T141C 001:242 JLINK_WriteReg(R8, 0x00000000)  returns 0x00 (0000ms, 0700ms total)
T141C 001:242 JLINK_WriteReg(R9, 0x20000160)  returns 0x00 (0000ms, 0700ms total)
T141C 001:242 JLINK_WriteReg(R10, 0x00000000)  returns 0x00 (0000ms, 0700ms total)
T141C 001:242 JLINK_WriteReg(R11, 0x00000000)  returns 0x00 (0000ms, 0700ms total)
T141C 001:242 JLINK_WriteReg(R12, 0x00000000)  returns 0x00 (0000ms, 0700ms total)
T141C 001:242 JLINK_WriteReg(R13, 0x20000800)  returns 0x00 (0000ms, 0700ms total)
T141C 001:242 JLINK_WriteReg(R14, 0x20000001)  returns 0x00 (0000ms, 0700ms total)
T141C 001:242 JLINK_WriteReg(R15, 0x200000F4)  returns 0x00 (0000ms, 0700ms total)
T141C 001:242 JLINK_WriteReg(XPSR, 0x01000000)  returns 0x00 (0000ms, 0700ms total)
T141C 001:242 JLINK_WriteReg(MSP, 0x20000800)  returns 0x00 (0001ms, 0701ms total)
T141C 001:243 JLINK_WriteReg(PSP, 0x20000800)  returns 0x00 (0000ms, 0701ms total)
T141C 001:243 JLINK_WriteReg(CFBP, 0x00000000)  returns 0x00 (0000ms, 0701ms total)
T141C 001:243 JLINK_SetBPEx(Addr = 0x20000000, Type = 0xFFFFFFF2)  returns 0x0000000B (0000ms, 0701ms total)
T141C 001:243 JLINK_Go() -- CPU_WriteMem(4 bytes @ 0xE0002008) -- CPU_WriteMem(4 bytes @ 0xE000200C) -- CPU_WriteMem(4 bytes @ 0xE0002010) -- CPU_WriteMem(4 bytes @ 0xE0002014) -- CPU_WriteMem(4 bytes @ 0xE0002018) -- CPU_WriteMem(4 bytes @ 0xE000201C) (0010ms, 0711ms total)
T141C 001:253 JLINK_IsHalted()  returns FALSE (0001ms, 0712ms total)
T141C 001:304 JLINK_IsHalted() -- CPU_ReadMem(2 bytes @ 0x20000000)  returns TRUE (0005ms, 0716ms total)
T141C 001:309 JLINK_ReadReg(R15)  returns 0x20000000 (0000ms, 0711ms total)
T141C 001:309 JLINK_ClrBPEx(BPHandle = 0x0000000B)  returns 0x00 (0001ms, 0712ms total)
T141C 001:310 JLINK_ReadReg(R0)  returns 0x00000000 (0000ms, 0712ms total)
T141C 001:311 JLINK_WriteMem(0x20000164, 0x0400 Bytes, ...) -- Data:  01 68 21 F4 80 21 01 60 41 68 21 F4 FE 01 41 60 ... -- CPU_WriteMem(1024 bytes @ 0x20000164)  returns 0x400 (0008ms, 0720ms total)
T141C 001:319 JLINK_WriteReg(R0, 0x08001C00)  returns 0x00 (0000ms, 0720ms total)
T141C 001:319 JLINK_WriteReg(R1, 0x00000400)  returns 0x00 (0000ms, 0720ms total)
T141C 001:319 JLINK_WriteReg(R2, 0x20000164)  returns 0x00 (0000ms, 0720ms total)
T141C 001:319 JLINK_WriteReg(R3, 0x00000000)  returns 0x00 (0000ms, 0720ms total)
T141C 001:319 JLINK_WriteReg(R4, 0x00000000)  returns 0x00 (0000ms, 0720ms total)
T141C 001:319 JLINK_WriteReg(R5, 0x00000000)  returns 0x00 (0000ms, 0720ms total)
T141C 001:319 JLINK_WriteReg(R6, 0x00000000)  returns 0x00 (0001ms, 0721ms total)
T141C 001:320 JLINK_WriteReg(R7, 0x00000000)  returns 0x00 (0000ms, 0721ms total)
T141C 001:320 JLINK_WriteReg(R8, 0x00000000)  returns 0x00 (0000ms, 0721ms total)
T141C 001:320 JLINK_WriteReg(R9, 0x20000160)  returns 0x00 (0000ms, 0721ms total)
T141C 001:320 JLINK_WriteReg(R10, 0x00000000)  returns 0x00 (0000ms, 0721ms total)
T141C 001:320 JLINK_WriteReg(R11, 0x00000000)  returns 0x00 (0000ms, 0721ms total)
T141C 001:320 JLINK_WriteReg(R12, 0x00000000)  returns 0x00 (0000ms, 0721ms total)
T141C 001:320 JLINK_WriteReg(R13, 0x20000800)  returns 0x00 (0000ms, 0721ms total)
T141C 001:320 JLINK_WriteReg(R14, 0x20000001)  returns 0x00 (0000ms, 0721ms total)
T141C 001:320 JLINK_WriteReg(R15, 0x200000F4)  returns 0x00 (0000ms, 0721ms total)
T141C 001:320 JLINK_WriteReg(XPSR, 0x01000000)  returns 0x00 (0000ms, 0721ms total)
T141C 001:320 JLINK_WriteReg(MSP, 0x20000800)  returns 0x00 (0000ms, 0721ms total)
T141C 001:320 JLINK_WriteReg(PSP, 0x20000800)  returns 0x00 (0000ms, 0721ms total)
T141C 001:320 JLINK_WriteReg(CFBP, 0x00000000)  returns 0x00 (0000ms, 0721ms total)
T141C 001:320 JLINK_SetBPEx(Addr = 0x20000000, Type = 0xFFFFFFF2)  returns 0x0000000C (0000ms, 0721ms total)
T141C 001:320 JLINK_Go() -- CPU_WriteMem(4 bytes @ 0xE0002008) -- CPU_WriteMem(4 bytes @ 0xE000200C) -- CPU_WriteMem(4 bytes @ 0xE0002010) -- CPU_WriteMem(4 bytes @ 0xE0002014) -- CPU_WriteMem(4 bytes @ 0xE0002018) -- CPU_WriteMem(4 bytes @ 0xE000201C) (0011ms, 0732ms total)
T141C 001:331 JLINK_IsHalted()  returns FALSE (0001ms, 0733ms total)
T141C 001:382 JLINK_IsHalted() -- CPU_ReadMem(2 bytes @ 0x20000000)  returns TRUE (0005ms, 0737ms total)
T141C 001:387 JLINK_ReadReg(R15)  returns 0x20000000 (0000ms, 0732ms total)
T141C 001:387 JLINK_ClrBPEx(BPHandle = 0x0000000C)  returns 0x00 (0000ms, 0732ms total)
T141C 001:387 JLINK_ReadReg(R0)  returns 0x00000000 (0000ms, 0732ms total)
T141C 001:389 JLINK_WriteMem(0x20000164, 0x0400 Bytes, ...) -- Data:  34 35 36 37 38 39 41 42 43 44 45 46 00 00 00 00 ... -- CPU_WriteMem(1024 bytes @ 0x20000164)  returns 0x400 (0008ms, 0740ms total)
T141C 001:397 JLINK_WriteReg(R0, 0x08002000)  returns 0x00 (0000ms, 0740ms total)
T141C 001:397 JLINK_WriteReg(R1, 0x00000108)  returns 0x00 (0000ms, 0740ms total)
T141C 001:397 JLINK_WriteReg(R2, 0x20000164)  returns 0x00 (0000ms, 0740ms total)
T141C 001:397 JLINK_WriteReg(R3, 0x00000000)  returns 0x00 (0000ms, 0740ms total)
T141C 001:397 JLINK_WriteReg(R4, 0x00000000)  returns 0x00 (0000ms, 0740ms total)
T141C 001:397 JLINK_WriteReg(R5, 0x00000000)  returns 0x00 (0000ms, 0740ms total)
T141C 001:397 JLINK_WriteReg(R6, 0x00000000)  returns 0x00 (0001ms, 0741ms total)
T141C 001:398 JLINK_WriteReg(R7, 0x00000000)  returns 0x00 (0000ms, 0741ms total)
T141C 001:398 JLINK_WriteReg(R8, 0x00000000)  returns 0x00 (0000ms, 0741ms total)
T141C 001:398 JLINK_WriteReg(R9, 0x20000160)  returns 0x00 (0000ms, 0741ms total)
T141C 001:398 JLINK_WriteReg(R10, 0x00000000)  returns 0x00 (0000ms, 0741ms total)
T141C 001:398 JLINK_WriteReg(R11, 0x00000000)  returns 0x00 (0000ms, 0741ms total)
T141C 001:398 JLINK_WriteReg(R12, 0x00000000)  returns 0x00 (0000ms, 0741ms total)
T141C 001:398 JLINK_WriteReg(R13, 0x20000800)  returns 0x00 (0000ms, 0741ms total)
T141C 001:398 JLINK_WriteReg(R14, 0x20000001)  returns 0x00 (0000ms, 0741ms total)
T141C 001:398 JLINK_WriteReg(R15, 0x200000F4)  returns 0x00 (0000ms, 0741ms total)
T141C 001:398 JLINK_WriteReg(XPSR, 0x01000000)  returns 0x00 (0000ms, 0741ms total)
T141C 001:398 JLINK_WriteReg(MSP, 0x20000800)  returns 0x00 (0000ms, 0741ms total)
T141C 001:398 JLINK_WriteReg(PSP, 0x20000800)  returns 0x00 (0000ms, 0741ms total)
T141C 001:398 JLINK_WriteReg(CFBP, 0x00000000)  returns 0x00 (0000ms, 0741ms total)
T141C 001:398 JLINK_SetBPEx(Addr = 0x20000000, Type = 0xFFFFFFF2)  returns 0x0000000D (0000ms, 0741ms total)
T141C 001:398 JLINK_Go() -- CPU_WriteMem(4 bytes @ 0xE0002008) -- CPU_WriteMem(4 bytes @ 0xE000200C) -- CPU_WriteMem(4 bytes @ 0xE0002010) -- CPU_WriteMem(4 bytes @ 0xE0002014) -- CPU_WriteMem(4 bytes @ 0xE0002018) -- CPU_WriteMem(4 bytes @ 0xE000201C) (0011ms, 0752ms total)
T141C 001:409 JLINK_IsHalted()  returns FALSE (0001ms, 0753ms total)
T141C 001:460 JLINK_IsHalted() -- CPU_ReadMem(2 bytes @ 0x20000000)  returns TRUE (0005ms, 0757ms total)
T141C 001:465 JLINK_ReadReg(R15)  returns 0x20000000 (0000ms, 0752ms total)
T141C 001:465 JLINK_ClrBPEx(BPHandle = 0x0000000D)  returns 0x00 (0000ms, 0752ms total)
T141C 001:465 JLINK_ReadReg(R0)  returns 0x00000000 (0000ms, 0752ms total)
T141C 001:465 JLINK_WriteReg(R0, 0x00000002)  returns 0x00 (0000ms, 0752ms total)
T141C 001:465 JLINK_WriteReg(R1, 0x00000108)  returns 0x00 (0000ms, 0752ms total)
T141C 001:465 JLINK_WriteReg(R2, 0x20000164)  returns 0x00 (0000ms, 0752ms total)
T141C 001:465 JLINK_WriteReg(R3, 0x00000000)  returns 0x00 (0000ms, 0752ms total)
T141C 001:465 JLINK_WriteReg(R4, 0x00000000)  returns 0x00 (0000ms, 0752ms total)
T141C 001:465 JLINK_WriteReg(R5, 0x00000000)  returns 0x00 (0000ms, 0752ms total)
T141C 001:465 JLINK_WriteReg(R6, 0x00000000)  returns 0x00 (0000ms, 0752ms total)
T141C 001:465 JLINK_WriteReg(R7, 0x00000000)  returns 0x00 (0000ms, 0752ms total)
T141C 001:465 JLINK_WriteReg(R8, 0x00000000)  returns 0x00 (0000ms, 0752ms total)
T141C 001:466 JLINK_WriteReg(R9, 0x20000160)  returns 0x00 (0000ms, 0752ms total)
T141C 001:466 JLINK_WriteReg(R10, 0x00000000)  returns 0x00 (0000ms, 0752ms total)
T141C 001:466 JLINK_WriteReg(R11, 0x00000000)  returns 0x00 (0000ms, 0752ms total)
T141C 001:466 JLINK_WriteReg(R12, 0x00000000)  returns 0x00 (0000ms, 0752ms total)
T141C 001:466 JLINK_WriteReg(R13, 0x20000800)  returns 0x00 (0000ms, 0752ms total)
T141C 001:466 JLINK_WriteReg(R14, 0x20000001)  returns 0x00 (0000ms, 0752ms total)
T141C 001:466 JLINK_WriteReg(R15, 0x2000006A)  returns 0x00 (0000ms, 0752ms total)
T141C 001:466 JLINK_WriteReg(XPSR, 0x01000000)  returns 0x00 (0000ms, 0752ms total)
T141C 001:466 JLINK_WriteReg(MSP, 0x20000800)  returns 0x00 (0000ms, 0752ms total)
T141C 001:466 JLINK_WriteReg(PSP, 0x20000800)  returns 0x00 (0000ms, 0752ms total)
T141C 001:466 JLINK_WriteReg(CFBP, 0x00000000)  returns 0x00 (0000ms, 0752ms total)
T141C 001:466 JLINK_SetBPEx(Addr = 0x20000000, Type = 0xFFFFFFF2)  returns 0x0000000E (0000ms, 0752ms total)
T141C 001:466 JLINK_Go() -- CPU_WriteMem(4 bytes @ 0xE0002008) -- CPU_WriteMem(4 bytes @ 0xE000200C) -- CPU_WriteMem(4 bytes @ 0xE0002010) -- CPU_WriteMem(4 bytes @ 0xE0002014) -- CPU_WriteMem(4 bytes @ 0xE0002018) -- CPU_WriteMem(4 bytes @ 0xE000201C) (0010ms, 0762ms total)
T141C 001:476 JLINK_IsHalted() -- CPU_ReadMem(2 bytes @ 0x20000000)  returns TRUE (0005ms, 0767ms total)
T141C 001:481 JLINK_ReadReg(R15)  returns 0x20000000 (0000ms, 0762ms total)
T141C 001:481 JLINK_ClrBPEx(BPHandle = 0x0000000E)  returns 0x00 (0000ms, 0762ms total)
T141C 001:481 JLINK_ReadReg(R0)  returns 0x00000000 (0000ms, 0762ms total)
T141C 001:542 JLINK_WriteMem(0x20000000, 0x0164 Bytes, ...) -- Data:  00 BE 0A E0 0D 78 2D 06 68 40 08 24 40 00 00 D3 ... -- CPU_WriteMem(356 bytes @ 0x20000000)  returns 0x164 (0004ms, 0766ms total)
T141C 001:546 JLINK_WriteReg(R0, 0x08000000)  returns 0x00 (0000ms, 0766ms total)
T141C 001:546 JLINK_WriteReg(R1, 0x007A1200)  returns 0x00 (0000ms, 0766ms total)
T141C 001:546 JLINK_WriteReg(R2, 0x00000003)  returns 0x00 (0000ms, 0766ms total)
T141C 001:546 JLINK_WriteReg(R3, 0x00000000)  returns 0x00 (0000ms, 0766ms total)
T141C 001:546 JLINK_WriteReg(R4, 0x00000000)  returns 0x00 (0000ms, 0766ms total)
T141C 001:546 JLINK_WriteReg(R5, 0x00000000)  returns 0x00 (0001ms, 0767ms total)
T141C 001:547 JLINK_WriteReg(R6, 0x00000000)  returns 0x00 (0000ms, 0767ms total)
T141C 001:547 JLINK_WriteReg(R7, 0x00000000)  returns 0x00 (0000ms, 0767ms total)
T141C 001:547 JLINK_WriteReg(R8, 0x00000000)  returns 0x00 (0000ms, 0767ms total)
T141C 001:547 JLINK_WriteReg(R9, 0x20000160)  returns 0x00 (0000ms, 0767ms total)
T141C 001:547 JLINK_WriteReg(R10, 0x00000000)  returns 0x00 (0000ms, 0767ms total)
T141C 001:547 JLINK_WriteReg(R11, 0x00000000)  returns 0x00 (0000ms, 0767ms total)
T141C 001:547 JLINK_WriteReg(R12, 0x00000000)  returns 0x00 (0000ms, 0767ms total)
T141C 001:547 JLINK_WriteReg(R13, 0x20000800)  returns 0x00 (0000ms, 0767ms total)
T141C 001:547 JLINK_WriteReg(R14, 0x20000001)  returns 0x00 (0000ms, 0767ms total)
T141C 001:547 JLINK_WriteReg(R15, 0x20000038)  returns 0x00 (0000ms, 0767ms total)
T141C 001:547 JLINK_WriteReg(XPSR, 0x01000000)  returns 0x00 (0000ms, 0767ms total)
T141C 001:547 JLINK_WriteReg(MSP, 0x20000800)  returns 0x00 (0000ms, 0767ms total)
T141C 001:547 JLINK_WriteReg(PSP, 0x20000800)  returns 0x00 (0000ms, 0767ms total)
T141C 001:547 JLINK_WriteReg(CFBP, 0x00000000)  returns 0x00 (0000ms, 0767ms total)
T141C 001:547 JLINK_SetBPEx(Addr = 0x20000000, Type = 0xFFFFFFF2) -- CPU_ReadMem(2 bytes @ 0x20000000)  returns 0x0000000F (0002ms, 0769ms total)
T141C 001:549 JLINK_Go() -- CPU_WriteMem(2 bytes @ 0x20000000) -- CPU_WriteMem(4 bytes @ 0xE0002008) -- CPU_WriteMem(4 bytes @ 0xE000200C) -- CPU_WriteMem(4 bytes @ 0xE0002010) -- CPU_WriteMem(4 bytes @ 0xE0002014) -- CPU_WriteMem(4 bytes @ 0xE0002018) -- CPU_WriteMem(4 bytes @ 0xE000201C) (0011ms, 0780ms total)
T141C 001:561 JLINK_IsHalted() -- CPU_ReadMem(2 bytes @ 0x20000000)  returns TRUE (0004ms, 0785ms total)
T141C 001:566 JLINK_ReadReg(R15)  returns 0x20000000 (0000ms, 0781ms total)
T141C 001:566 JLINK_ClrBPEx(BPHandle = 0x0000000F)  returns 0x00 (0000ms, 0781ms total)
T141C 001:566 JLINK_ReadReg(R0)  returns 0x00000000 (0000ms, 0781ms total)
T141C 001:566 JLINK_WriteReg(R0, 0xFFFFFFFF)  returns 0x00 (0000ms, 0781ms total)
T141C 001:566 JLINK_WriteReg(R1, 0x08000000)  returns 0x00 (0000ms, 0781ms total)
T141C 001:566 JLINK_WriteReg(R2, 0x00002108)  returns 0x00 (0000ms, 0781ms total)
T141C 001:566 JLINK_WriteReg(R3, 0x04C11DB7)  returns 0x00 (0000ms, 0781ms total)
T141C 001:566 JLINK_WriteReg(R4, 0x00000000)  returns 0x00 (0000ms, 0781ms total)
T141C 001:566 JLINK_WriteReg(R5, 0x00000000)  returns 0x00 (0000ms, 0781ms total)
T141C 001:566 JLINK_WriteReg(R6, 0x00000000)  returns 0x00 (0000ms, 0781ms total)
T141C 001:566 JLINK_WriteReg(R7, 0x00000000)  returns 0x00 (0000ms, 0781ms total)
T141C 001:566 JLINK_WriteReg(R8, 0x00000000)  returns 0x00 (0000ms, 0781ms total)
T141C 001:566 JLINK_WriteReg(R9, 0x20000160)  returns 0x00 (0000ms, 0781ms total)
T141C 001:566 JLINK_WriteReg(R10, 0x00000000)  returns 0x00 (0000ms, 0781ms total)
T141C 001:566 JLINK_WriteReg(R11, 0x00000000)  returns 0x00 (0000ms, 0781ms total)
T141C 001:566 JLINK_WriteReg(R12, 0x00000000)  returns 0x00 (0000ms, 0781ms total)
T141C 001:566 JLINK_WriteReg(R13, 0x20000800)  returns 0x00 (0000ms, 0781ms total)
T141C 001:566 JLINK_WriteReg(R14, 0x20000001)  returns 0x00 (0000ms, 0781ms total)
T141C 001:566 JLINK_WriteReg(R15, 0x20000002)  returns 0x00 (0000ms, 0781ms total)
T141C 001:566 JLINK_WriteReg(XPSR, 0x01000000)  returns 0x00 (0001ms, 0782ms total)
T141C 001:567 JLINK_WriteReg(MSP, 0x20000800)  returns 0x00 (0000ms, 0782ms total)
T141C 001:567 JLINK_WriteReg(PSP, 0x20000800)  returns 0x00 (0000ms, 0782ms total)
T141C 001:567 JLINK_WriteReg(CFBP, 0x00000000)  returns 0x00 (0000ms, 0782ms total)
T141C 001:567 JLINK_SetBPEx(Addr = 0x20000000, Type = 0xFFFFFFF2)  returns 0x00000010 (0000ms, 0782ms total)
T141C 001:567 JLINK_Go() -- CPU_WriteMem(4 bytes @ 0xE0002008) -- CPU_WriteMem(4 bytes @ 0xE000200C) -- CPU_WriteMem(4 bytes @ 0xE0002010) -- CPU_WriteMem(4 bytes @ 0xE0002014) -- CPU_WriteMem(4 bytes @ 0xE0002018) -- CPU_WriteMem(4 bytes @ 0xE000201C) (0010ms, 0792ms total)
T141C 001:577 JLINK_IsHalted()  returns FALSE (0001ms, 0793ms total)
T141C 001:628 JLINK_IsHalted()  returns FALSE (0001ms, 0793ms total)
T141C 001:679 JLINK_IsHalted() -- CPU_ReadMem(2 bytes @ 0x20000000)  returns TRUE (0006ms, 0798ms total)
T141C 001:685 JLINK_ReadReg(R15)  returns 0x20000000 (0000ms, 0792ms total)
T141C 001:685 JLINK_ClrBPEx(BPHandle = 0x00000010)  returns 0x00 (0000ms, 0792ms total)
T141C 001:685 JLINK_ReadReg(R0)  returns 0x0B36D0A2 (0000ms, 0792ms total)
T141C 001:687 JLINK_WriteReg(R0, 0x00000003)  returns 0x00 (0000ms, 0792ms total)
T141C 001:687 JLINK_WriteReg(R1, 0x08000000)  returns 0x00 (0000ms, 0792ms total)
T141C 001:687 JLINK_WriteReg(R2, 0x00002108)  returns 0x00 (0000ms, 0792ms total)
T141C 001:687 JLINK_WriteReg(R3, 0x04C11DB7)  returns 0x00 (0000ms, 0792ms total)
T141C 001:687 JLINK_WriteReg(R4, 0x00000000)  returns 0x00 (0000ms, 0792ms total)
T141C 001:687 JLINK_WriteReg(R5, 0x00000000)  returns 0x00 (0001ms, 0793ms total)
T141C 001:688 JLINK_WriteReg(R6, 0x00000000)  returns 0x00 (0000ms, 0793ms total)
T141C 001:688 JLINK_WriteReg(R7, 0x00000000)  returns 0x00 (0000ms, 0793ms total)
T141C 001:688 JLINK_WriteReg(R8, 0x00000000)  returns 0x00 (0000ms, 0793ms total)
T141C 001:688 JLINK_WriteReg(R9, 0x20000160)  returns 0x00 (0000ms, 0793ms total)
T141C 001:688 JLINK_WriteReg(R10, 0x00000000)  returns 0x00 (0000ms, 0793ms total)
T141C 001:688 JLINK_WriteReg(R11, 0x00000000)  returns 0x00 (0000ms, 0793ms total)
T141C 001:688 JLINK_WriteReg(R12, 0x00000000)  returns 0x00 (0000ms, 0793ms total)
T141C 001:688 JLINK_WriteReg(R13, 0x20000800)  returns 0x00 (0000ms, 0793ms total)
T141C 001:688 JLINK_WriteReg(R14, 0x20000001)  returns 0x00 (0000ms, 0793ms total)
T141C 001:688 JLINK_WriteReg(R15, 0x2000006A)  returns 0x00 (0000ms, 0793ms total)
T141C 001:688 JLINK_WriteReg(XPSR, 0x01000000)  returns 0x00 (0000ms, 0793ms total)
T141C 001:688 JLINK_WriteReg(MSP, 0x20000800)  returns 0x00 (0000ms, 0793ms total)
